! TOUCHSTONE file generated by CST MICROWAVE STUDIO
# GHZ S MA R 50
10                      0.991602        -55.8855        0.0182345         151.021                0               0                0               0  
10.07                   0.989256        -55.7685        0.0186674         101.086                0               0                0               0  
10.14                   0.994461        -55.7337        0.0189188         52.5649                0               0                0               0  
10.21                    1.00343        -56.0799        0.0187104         4.56534                0               0                0               0  
10.28                    1.00987        -56.8271        0.0180664        -44.1045                0               0                0               0  
10.35                    1.00944        -57.7248        0.0173056        -94.3344                0               0                0               0  
10.42                    1.00253        -58.4302        0.0168609         -146.02                0               0                0               0  
10.49                   0.993963        -58.7298        0.0169597         162.173                0               0                0               0  
10.56                   0.989717         -58.689        0.0174195         111.732                0               0                0               0  
10.63                   0.992723        -58.6192         0.017805         63.0096                0               0                0               0  
10.7                     1.00074        -58.8487        0.0177578         15.2063                0               0                0               0  
10.77                    1.00811        -59.4824        0.0172084        -32.9747                0               0                0               0  
10.84                    1.00977        -60.3457        0.0164149        -82.6991                0               0                0               0  
10.91                    1.00469        -61.1177        0.0158314        -134.258                0               0                0               0  
10.98                   0.996437         -61.541        0.0157973         173.521                0               0                0               0  
11.05                   0.990762        -61.5954          0.01624         122.471                0               0                0               0  
11.12                   0.991622        -61.5237        0.0167364         73.3976                0               0                0               0  
11.19                   0.998311        -61.6587        0.0168569         25.6781                0               0                0               0  
11.26                    1.00605        -62.1765        0.0164341        -22.0444                0               0                0               0  
11.33                    1.00949         -62.982         0.015647        -71.1737                0               0                0               0  
11.4                     1.00635        -63.7917        0.0149404        -122.424                0               0                0               0  
11.47                    0.99886        -64.3236        0.0147493        -174.952                0               0                0               0  
11.54                   0.992248        -64.4834        0.0151328         133.322                0               0                0               0  
11.61                   0.991134        -64.4383         0.015712         83.7491                0               0                0               0  
11.68                   0.996228        -64.5041        0.0159999         35.9871                0               0                0               0  
11.75                    1.00386        -64.9101        0.0157305         -11.329                0               0                0               0  
11.82                    1.00871        -65.6403        0.0149899         -59.797                0               0                0               0  
11.89                    1.00749        -66.4607        0.0141846        -110.545                0               0                0               0  
11.96                    1.00112        -67.0827         0.013819        -163.208                0               0                0               0  
12.03                   0.994051        -67.3513        0.0140976         144.362                0               0                0               0  
12.1                    0.991217        -67.3571         0.014722         94.1281                0               0                0               0  
12.17                   0.994563        -67.3801        0.0151681         46.1639                0               0                0               0  
12.24                    1.00165         -67.684        0.0150732       -0.842041                0               0                0               0  
12.31                    1.00748        -68.3263        0.0144214         -48.631                0               0                0               0  
12.38                    1.00808        -69.1325        0.0135547           -98.7                0               0                0               0  
12.45                     1.0031        -69.8229        0.0130124        -151.262                0               0                0               0  
12.52                   0.996022        -70.1974        0.0131435         155.652                0               0                0               0  
12.59                   0.991796        -70.2725        0.0137681         104.609                0               0                0               0  
12.66                   0.993356        -70.2788        0.0143522          56.264                0               0                0               0  
12.73                   0.999526        -70.4949        0.0144426         9.44299                0               0                0               0  
12.8                     1.00593         -71.043        0.0139163         -37.697                0               0                0               0  
12.87                    1.00815         -71.813        0.0130309         -86.957                0               0                0               0  
12.94                    1.00473        -72.5494        0.0123239        -139.159                0               0                0               0  
13.01                   0.998068        -73.0219        0.0122726         167.218                0               0                0               0  
13.08                   0.992824        -73.1799        0.0128497         115.238                0               0                0               0  
13.15                   0.992656        -73.1951        0.0135451          66.313                0               0                0               0  
13.22                   0.997619        -73.3419        0.0138255         19.5249                0               0                0               0  
13.29                    1.00417        -73.7948        0.0134577         -27.032                0               0                0               0  
13.36                    1.00774        -74.5103        0.0126006         -75.396                0               0                0               0  
13.43                    1.00593        -75.2692        0.0117547        -126.964                0               0                0               0  
13.5                     1.00004        -75.8265         0.011495         179.093                0               0                0               0  
13.57                   0.994179        -76.0744         0.011972          126.09                0               0                0               0  
13.64                   0.992446         -76.121        0.0127431          76.366                0               0                0               0  
13.71                   0.996014        -76.2195        0.0132094         29.4221                0               0                0               0  
13.78                    1.00231        -76.5821        0.0130279        -16.6621                0               0                0               0  
13.85                    1.00692        -77.2299        0.0122484        -64.0991                0               0                0               0  
13.92                     1.0067        -77.9893        0.0113039        -114.775                0               0                0               0  
13.99                    1.00185        -78.6157        0.0108247        -168.716                0               0                0               0  
14.06                   0.995761        -78.9548        0.0111473         137.266                0               0                0               0  
14.13                   0.992688        -79.0514        0.0119471         86.5161                0               0                0               0  
14.2                    0.994758        -79.1235        0.0125837          39.197                0               0                0               0  
14.27                    1.00045        -79.4048        0.0126061        -6.56494                0               0                0               0  
14.34                    1.00575        -79.9757        0.0119497         -53.115                0               0                0               0  
14.41                    1.00701        -80.7152         0.010957        -102.709                0               0                0               0  
14.48                     1.0034         -81.392        0.0102668        -156.269                0               0                0               0  
14.55                   0.997467        -81.8188        0.0103874         148.819                0               0                0               0  
14.62                   0.993348        -81.9799        0.0111627         96.8369                0               0                0               0  
14.69                   0.993918        -82.0478        0.0119451          48.896                0               0                0               0  
14.76                   0.998723        -82.2617        0.0121803         3.27808                0               0                0               0  
14.83                    1.00435         -82.752        0.0116864        -42.4719                0               0                0               0  
14.9                     1.00689        -83.4542        0.0107005        -90.8689                0               0                0               0  
14.97                    1.00464        -84.1622       0.00982506        -143.647                0               0                0               0  
15.04                   0.999188        -84.6685       0.00970516         160.813                0               0                0               0  
15.11                   0.994343        -84.9031         0.010396         107.426                0               0                0               0  
15.18                   0.993494        -84.9871        0.0112896          58.585                0               0                0               0  
15.25                   0.997197        -85.1497        0.0117379         12.8979                0               0                0               0  
15.32                    1.00281        -85.5604        0.0114393        -32.1841                0               0                0               0  
15.39                     1.0064        -86.2114        0.0105162         -79.353                0               0                0               0  
15.46                    1.00553        -86.9315       0.00949893        -130.981                0               0                0               0  
15.53                    1.00084        -87.5058       0.00911558          173.27                0               0                0               0  
15.6                    0.995598        -87.8188       0.00965712         118.396                0               0                0               0  
15.67                   0.993478        -87.9369        0.0106166         68.3469                0               0                0               0  
15.74                    0.99594         -88.066        0.0112677         22.3401                0               0                0               0  
15.81                    1.00121        -88.4024        0.0111885         -22.249                0               0                0               0  
15.88                    1.00558        -88.9918        0.0103819        -68.2439                0               0                0               0  
15.95                    1.00604        -89.7056       0.00928015        -118.452                0               0                0               0  
16.02                    1.00232        -90.3338       0.00863377        -173.869                0               0                0               0  
16.09                   0.997019        -90.7253       0.00896357         129.844                0               0                0               0  
16.16                   0.993837        -90.8923       0.00993381         78.2729                0               0                0               0  
16.23                   0.994993        -91.0068        0.0107677         31.6631                0               0                0               0  
16.3                    0.999632        -91.2776        0.0109223        -12.6318                0               0                0               0  
16.37                    1.00447        -91.7989        0.0102788        -57.5659                0               0                0               0  
16.44                    1.00617        -92.4895        0.0091559        -106.198                0               0                0               0  
16.51                    1.00357        -93.1556       0.00826916        -160.694                0               0                0               0  
16.58                   0.998517        -93.6214       0.00833064         141.884                0               0                0               0  
16.65                    0.99453        -93.8484       0.00924547         88.4868                0               0                0               0  
16.72                   0.994398        -93.9668        0.0102313          40.938                0               0                0               0  
16.79                    0.99818        -94.1844        0.0106251        -3.30322                0               0                0               0  
16.86                    1.00319        -94.6355         0.010184        -47.3428                0               0                0               0  
16.93                    1.00593        -95.2887       0.00910586         -94.374                0               0                0               0  
17                       1.00454         -95.976       0.00802599        -147.412                0               0                0               0  
17.07                    1.00001        -96.5083       0.00778025         154.563                0               0                0               0  
17.14                   0.995501        -96.8025       0.00856547         99.1152                0               0                0               0  
17.21                   0.994167         -96.942       0.00966114         50.2461                0               0                0               0  
17.28                   0.996921        -97.1212        0.0102897         5.79004                0               0                0               0  
17.35                    1.00179        -97.5039         0.010081        -37.5591                0               0                0               0  
17.42                    1.00537        -98.1082       0.00910964        -83.0669                0               0                0               0  
17.49                    1.00519        -98.7999       0.00790128         -134.25                0               0                0               0  
17.56                    1.00141        -99.3879       0.00733407         167.882                0               0                0               0  
17.63                   0.996674        -99.7521       0.00790973         110.325                0               0                0               0  
17.7                    0.994289        -99.9277       0.00906001         59.7051                0               0                0               0  
17.77                   0.995916        -100.085       0.00990784         14.7168                0               0                0               0  
17.84                    1.00038        -100.405       0.00995179        -28.1729                0               0                0               0  
17.91                    1.00454        -100.952       0.00914215        -72.3262                0               0                0               0  
17.98                    1.00551        -101.633       0.00788047        -121.455                0               0                0               0  
18.05                    1.00266        -102.263       0.00701025          -178.3                0               0                0               0  
18.12                   0.997969        -102.697       0.00730023         122.269                0               0                0               0  
18.19                   0.994726         -102.92       0.00843683         69.4458                0               0                0               0  
18.26                   0.995193        -103.071       0.00947766          23.562                0               0                0               0  
18.33                   0.999012        -103.338       0.00978383         -19.124                0               0                0               0  
18.4                     1.00348        -103.824       0.00918074        -62.1348                0               0                0               0  
18.47                    1.00549        -104.479       0.00794126        -109.202                0               0                0               0  
18.54                    1.00368        -105.138       0.00681661        -164.229                0               0                0               0  
18.61                   0.999318        -105.636       0.00675895         135.072                0               0                0               0  
18.68                   0.995453        -105.916       0.00780086         79.6128                0               0                0               0  
18.75                    0.99479        -106.077       0.00899765          32.396                0               0                0               0  
18.82                   0.997774        -106.302       0.00956682        -10.3701                0               0                0               0  
18.89                    1.00228        -106.726       0.00920604         -52.481                0               0                0               0  
18.96                    1.00516        -107.343       0.00806053         -97.623                0               0                0               0  
19.03                    1.00444        -108.016        0.0067552        -150.254                0               0                0               0  
19.1                     1.00063         -108.57       0.00631575         148.791                0               0                0               0  
19.17                   0.996399        -108.913       0.00716935         90.4092                0               0                0               0  
